        * d:\analog_vlsi\mixed_signal_projects\buffer_sub\buffer_sub.cir
        Transient Analysis  Wed Mar 30 14:39:58  2022
--------------------------------------------------------------------------------
Index   time            v1#branch       v2#branch       
--------------------------------------------------------------------------------
0	0.000000e+00	-6.60664e-06	0.000000e+00	
1	1.000000e-08	-6.60628e-06	-3.00441e-11	
2	2.000000e-08	-6.60593e-06	-3.00411e-11	
3	4.000000e-08	-6.60524e-06	-3.00352e-11	
4	8.000000e-08	-6.60394e-06	-3.00342e-11	
5	1.600000e-07	-6.60165e-06	-3.00255e-11	
6	3.200000e-07	-6.59876e-06	-3.00354e-11	
7	6.400000e-07	-6.60498e-06	-3.01575e-11	
8	1.000000e-06	-6.65247e-06	-3.06818e-11	
9	1.064000e-06	-6.66831e-06	-9.42952e-13	
10	1.192000e-06	-6.70020e-06	-9.49170e-13	
11	1.448000e-06	-6.76460e-06	-9.47016e-13	
12	1.960000e-06	-6.89370e-06	-9.42956e-13	
13	2.984000e-06	-7.15308e-06	-9.34688e-13	
14	5.032000e-06	-7.67621e-06	-9.18691e-13	
15	9.128000e-06	-8.73750e-06	-8.87638e-13	
16	1.732000e-05	-1.09031e-05	-8.29884e-13	
17	3.370400e-05	-1.52968e-05	-7.26648e-13	
18	6.647200e-05	-2.33321e-05	-5.11430e-13	
19	1.320080e-04	-2.03186e-05	2.946379e-13	
20	2.630800e-04	-6.17673e-10	-1.10546e-12	
21	5.170863e-04	-6.04232e-11	9.962917e-13	
22	1.025099e-03	-8.54265e-11	-9.76876e-13	
23	2.041124e-03	-6.25736e-11	9.675084e-13	
24	4.073175e-03	-7.83696e-11	-9.63185e-13	
25	8.137275e-03	-6.30684e-11	9.610426e-13	
26	1.626548e-02	-7.69115e-11	-9.59991e-13	
27	3.252188e-02	-6.31890e-11	9.594662e-13	
28	6.503469e-02	-7.65621e-11	-9.59205e-13	
29	1.300603e-01	-6.32187e-11	9.590745e-13	
30	2.601115e-01	-7.64758e-11	-9.59009e-13	
31	4.601115e-01	-6.32259e-11	9.589670e-13	
32	6.601115e-01	-7.63811e-11	-9.58925e-13	
33	8.601115e-01	-6.32354e-11	9.588823e-13	
34	1.000001e+00	-7.63876e-11	-9.58822e-13	
35	1.000001e+00	-1.02107e-10	2.959980e-11	
36	1.000001e+00	-9.69586e-11	2.982476e-11	
37	1.000002e+00	-9.17717e-11	3.004554e-11	
38	1.000002e+00	-9.04404e-11	3.021181e-11	
39	1.000002e+00	-8.39266e-11	1.886027e-13	
40	1.000002e+00	-8.44868e-11	2.014766e-13	
41	1.000003e+00	-8.55746e-11	2.012461e-13	
42	1.000003e+00	-8.77883e-11	2.006910e-13	
43	1.000004e+00	-9.23940e-11	1.997426e-13	
44	1.000007e+00	-1.02344e-10	1.979239e-13	
45	1.000012e+00	-1.25618e-10	1.949616e-13	
46	1.000022e+00	-1.89435e-10	1.902502e-13	
47	1.000043e+00	-4.29545e-10	1.829875e-13	
48	1.000084e+00	-2.09803e-09	1.705959e-13	
49	1.000166e+00	-3.66156e-08	1.487395e-13	
50	1.000330e+00	-2.25710e-06	9.841597e-14	
51	1.000657e+00	-2.08423e-05	-9.70260e-15	
52	1.001313e+00	-2.23515e-05	3.783823e-14	
53	1.002623e+00	-8.18374e-06	2.258106e-14	
54	1.005245e+00	-6.25435e-06	-1.71756e-14	

Index   time            v1#branch       v2#branch       
--------------------------------------------------------------------------------
55	1.010488e+00	-6.79658e-06	1.638614e-14	
56	1.020973e+00	-6.46890e-06	-1.61492e-14	
57	1.041945e+00	-6.72569e-06	1.605611e-14	
58	1.083888e+00	-6.49704e-06	-1.60147e-14	
59	1.167774e+00	-6.71276e-06	1.599518e-14	
60	1.335546e+00	-6.50322e-06	-1.59857e-14	
61	1.535546e+00	-6.70903e-06	1.597788e-14	
62	1.735546e+00	-6.50662e-06	-1.59702e-14	
63	1.935546e+00	-6.70582e-06	1.596263e-14	
64	2.000000e+00	-6.51076e-06	-1.59399e-14	
65	2.000000e+00	-6.50965e-06	-3.00607e-11	
66	2.000000e+00	-6.50536e-06	-3.00165e-11	
67	2.000001e+00	-6.51630e-06	-3.02255e-11	
68	2.000001e+00	-6.55853e-06	-3.06683e-11	
69	2.000001e+00	-6.57804e-06	-9.38206e-13	
70	2.000001e+00	-6.61760e-06	-9.51827e-13	
71	2.000002e+00	-6.69795e-06	-9.49189e-13	
72	2.000002e+00	-6.85913e-06	-9.44036e-13	
73	2.000003e+00	-7.18334e-06	-9.33766e-13	
74	2.000006e+00	-7.83850e-06	-9.13797e-13	
75	2.000011e+00	-9.17113e-06	-8.75557e-13	
76	2.000021e+00	-1.18937e-05	-8.05266e-13	
77	2.000042e+00	-1.73645e-05	-6.80980e-13	
78	2.000083e+00	-2.40679e-05	-1.81166e-13	
79	2.000165e+00	-6.72936e-06	-1.18124e-13	
80	2.000329e+00	-5.20858e-11	-5.74020e-13	
81	2.000656e+00	-6.62208e-11	5.677134e-13	
82	2.001312e+00	-5.07323e-11	-5.64864e-13	
83	2.002622e+00	-6.66763e-11	5.634942e-13	
84	2.005244e+00	-5.04182e-11	-5.62827e-13	
85	2.010487e+00	-6.67811e-11	5.624960e-13	
86	2.020972e+00	-5.03509e-11	-5.62332e-13	
87	2.041944e+00	-6.68069e-11	5.622496e-13	
88	2.083887e+00	-5.03338e-11	-5.62209e-13	
89	2.167773e+00	-6.68133e-11	5.621883e-13	
90	2.335545e+00	-5.03297e-11	-5.62178e-13	
91	2.535545e+00	-6.68066e-11	5.621695e-13	
92	2.735545e+00	-5.03419e-11	-5.62161e-13	
93	2.935545e+00	-6.68134e-11	5.621523e-13	
94	3.000001e+00	-5.03376e-11	-5.62126e-13	
95	3.000001e+00	-6.79892e-11	2.971186e-11	
96	3.000001e+00	-6.48308e-11	2.989489e-11	
97	3.000002e+00	-6.16690e-11	3.007195e-11	
98	3.000002e+00	-6.08627e-11	3.022530e-11	
99	3.000002e+00	-5.42747e-11	2.016228e-13	
100	3.000002e+00	-5.46420e-11	2.145556e-13	
101	3.000003e+00	-5.53552e-11	2.140590e-13	
102	3.000003e+00	-5.68046e-11	2.129932e-13	
103	3.000004e+00	-5.98141e-11	2.110939e-13	
104	3.000007e+00	-6.62896e-11	2.076464e-13	
105	3.000012e+00	-8.13612e-11	2.023297e-13	
106	3.000022e+00	-1.22572e-10	1.952541e-13	
107	3.000043e+00	-2.78795e-10	1.866596e-13	
108	3.000084e+00	-1.39284e-09	1.737232e-13	
109	3.000166e+00	-2.57853e-08	1.515296e-13	
110	3.000330e+00	-1.87232e-06	1.031595e-13	
111	3.000657e+00	-2.05027e-05	-9.39271e-15	
112	3.001313e+00	-2.25140e-05	3.686792e-14	

Index   time            v1#branch       v2#branch       
--------------------------------------------------------------------------------
113	3.002623e+00	-8.20785e-06	2.402158e-14	
114	3.005245e+00	-6.24934e-06	-1.85371e-14	
115	3.010488e+00	-6.79926e-06	1.773641e-14	
116	3.020973e+00	-6.46690e-06	-1.74960e-14	
117	3.041945e+00	-6.72743e-06	1.740164e-14	
118	3.083888e+00	-6.49551e-06	-1.73597e-14	
119	3.167774e+00	-6.71430e-06	1.733985e-14	
120	3.335546e+00	-6.50171e-06	-1.73302e-14	
121	3.535546e+00	-6.71058e-06	1.732229e-14	
122	3.735546e+00	-6.50518e-06	-1.73145e-14	
123	3.935546e+00	-6.70724e-06	1.730682e-14	
124	4.000000e+00	-6.50940e-06	-1.72838e-14	
125	4.000000e+00	-6.50834e-06	-3.00607e-11	
126	4.000000e+00	-6.50405e-06	-3.00165e-11	
127	4.000001e+00	-6.51499e-06	-3.02255e-11	
128	4.000001e+00	-6.55722e-06	-3.06684e-11	
129	4.000001e+00	-6.57674e-06	-9.38247e-13	
130	4.000001e+00	-6.61630e-06	-9.51869e-13	
131	4.000002e+00	-6.69664e-06	-9.49231e-13	
132	4.000002e+00	-6.85782e-06	-9.44079e-13	
133	4.000003e+00	-7.18201e-06	-9.33807e-13	
134	4.000006e+00	-7.83716e-06	-9.13837e-13	
135	4.000011e+00	-9.16976e-06	-8.75595e-13	
136	4.000021e+00	-1.18923e-05	-8.05301e-13	
137	4.000042e+00	-1.73631e-05	-6.81011e-13	
138	4.000083e+00	-2.40679e-05	-1.81287e-13	
139	4.000165e+00	-6.73142e-06	-1.17967e-13	
140	4.000329e+00	-5.20841e-11	-5.74197e-13	
141	4.000656e+00	-6.62238e-11	5.678878e-13	
142	4.001312e+00	-5.07298e-11	-5.65038e-13	
143	4.002622e+00	-6.66795e-11	5.636669e-13	
144	4.005244e+00	-5.04157e-11	-5.62999e-13	
145	4.010487e+00	-6.67842e-11	5.626683e-13	
146	4.020972e+00	-5.03483e-11	-5.62504e-13	
147	4.041944e+00	-6.68103e-11	5.624218e-13	
148	4.083887e+00	-5.03312e-11	-5.62381e-13	
149	4.167773e+00	-6.68167e-11	5.623604e-13	
150	4.335545e+00	-5.03271e-11	-5.62350e-13	
151	4.535545e+00	-6.68100e-11	5.623416e-13	
152	4.735545e+00	-5.03393e-11	-5.62333e-13	
153	4.935545e+00	-6.68167e-11	5.623244e-13	
154	5.000001e+00	-5.03351e-11	-5.62298e-13	
155	5.000001e+00	-6.79917e-11	2.971185e-11	
156	5.000001e+00	-6.48330e-11	2.989488e-11	
157	5.000002e+00	-6.16710e-11	3.007195e-11	
158	5.000002e+00	-6.08646e-11	3.022530e-11	
159	5.000002e+00	-5.42767e-11	2.016213e-13	
160	5.000002e+00	-5.46440e-11	2.145541e-13	
161	5.000003e+00	-5.53571e-11	2.140576e-13	
162	5.000003e+00	-5.68069e-11	2.129918e-13	
163	5.000004e+00	-5.98162e-11	2.110926e-13	
164	5.000007e+00	-6.62919e-11	2.076453e-13	
165	5.000012e+00	-8.13639e-11	2.023290e-13	
166	5.000022e+00	-1.22576e-10	1.952537e-13	
167	5.000043e+00	-2.78805e-10	1.866592e-13	
168	5.000084e+00	-1.39289e-09	1.737230e-13	
169	5.000166e+00	-2.57860e-08	1.515293e-13	
170	5.000330e+00	-1.87234e-06	1.031590e-13	

Index   time            v1#branch       v2#branch       
--------------------------------------------------------------------------------
171	5.000657e+00	-2.05027e-05	-9.39253e-15	
172	5.001313e+00	-2.25140e-05	3.686776e-14	
173	5.002623e+00	-8.20785e-06	2.402174e-14	
174	5.005245e+00	-6.24934e-06	-1.85373e-14	
175	5.010488e+00	-6.79926e-06	1.773658e-14	
176	5.020973e+00	-6.46690e-06	-1.74962e-14	
177	5.041945e+00	-6.72743e-06	1.740181e-14	
178	5.083888e+00	-6.49551e-06	-1.73598e-14	
179	5.167774e+00	-6.71430e-06	1.734002e-14	
180	5.335546e+00	-6.50171e-06	-1.73304e-14	
181	5.535546e+00	-6.71058e-06	1.732246e-14	
182	5.735546e+00	-6.50518e-06	-1.73147e-14	
183	5.935546e+00	-6.70724e-06	1.730699e-14	
184	6.000000e+00	-6.50940e-06	-1.72839e-14	
185	6.000000e+00	-6.50834e-06	-3.00607e-11	
186	6.000000e+00	-6.50405e-06	-3.00165e-11	
187	6.000001e+00	-6.51499e-06	-3.02255e-11	
188	6.000001e+00	-6.55722e-06	-3.06684e-11	
189	6.000001e+00	-6.57674e-06	-9.38247e-13	
190	6.000001e+00	-6.61630e-06	-9.51869e-13	
191	6.000002e+00	-6.69664e-06	-9.49231e-13	
192	6.000002e+00	-6.85782e-06	-9.44079e-13	
193	6.000003e+00	-7.18201e-06	-9.33807e-13	
194	6.000006e+00	-7.83716e-06	-9.13837e-13	
195	6.000011e+00	-9.16976e-06	-8.75595e-13	
196	6.000021e+00	-1.18923e-05	-8.05301e-13	
197	6.000042e+00	-1.73631e-05	-6.81011e-13	
198	6.000083e+00	-2.40679e-05	-1.81287e-13	
199	6.000165e+00	-6.73143e-06	-1.17967e-13	
200	6.000329e+00	-5.20843e-11	-5.74198e-13	
201	6.000656e+00	-6.62239e-11	5.678879e-13	
202	6.001312e+00	-5.07298e-11	-5.65038e-13	
203	6.002622e+00	-6.66795e-11	5.636670e-13	
204	6.005244e+00	-5.04157e-11	-5.62999e-13	
205	6.010487e+00	-6.67842e-11	5.626684e-13	
206	6.020972e+00	-5.03484e-11	-5.62504e-13	
207	6.041944e+00	-6.68103e-11	5.624220e-13	
208	6.083887e+00	-5.03313e-11	-5.62381e-13	
209	6.167773e+00	-6.68167e-11	5.623605e-13	
210	6.335545e+00	-5.03272e-11	-5.62350e-13	
211	6.535545e+00	-6.68099e-11	5.623417e-13	
212	6.735545e+00	-5.03393e-11	-5.62333e-13	
213	6.935545e+00	-6.68165e-11	5.623246e-13	
214	7.000001e+00	-5.03351e-11	-5.62298e-13	
215	7.000001e+00	-6.79918e-11	2.971185e-11	
216	7.000001e+00	-6.48329e-11	2.989488e-11	
217	7.000002e+00	-6.16712e-11	3.007195e-11	
218	7.000002e+00	-6.08646e-11	3.022530e-11	
219	7.000002e+00	-5.42767e-11	2.016213e-13	
220	7.000002e+00	-5.46440e-11	2.145540e-13	
221	7.000003e+00	-5.53573e-11	2.140575e-13	
222	7.000003e+00	-5.68068e-11	2.129917e-13	
223	7.000004e+00	-5.98164e-11	2.110926e-13	
224	7.000007e+00	-6.62921e-11	2.076452e-13	
225	7.000012e+00	-8.13639e-11	2.023290e-13	
226	7.000022e+00	-1.22576e-10	1.952536e-13	
227	7.000043e+00	-2.78805e-10	1.866592e-13	
228	7.000084e+00	-1.39289e-09	1.737230e-13	

Index   time            v1#branch       v2#branch       
--------------------------------------------------------------------------------
229	7.000166e+00	-2.57861e-08	1.515293e-13	
230	7.000330e+00	-1.87235e-06	1.031590e-13	
231	7.000657e+00	-2.05027e-05	-9.39254e-15	
232	7.001313e+00	-2.25139e-05	3.686777e-14	
233	7.002623e+00	-8.20785e-06	2.402172e-14	
234	7.005245e+00	-6.24934e-06	-1.85373e-14	
235	7.010488e+00	-6.79926e-06	1.773657e-14	
236	7.020973e+00	-6.46690e-06	-1.74962e-14	
237	7.041945e+00	-6.72743e-06	1.740179e-14	
238	7.083888e+00	-6.49551e-06	-1.73598e-14	
239	7.167774e+00	-6.71430e-06	1.734000e-14	
240	7.335546e+00	-6.50171e-06	-1.73304e-14	
241	7.535546e+00	-6.71058e-06	1.732245e-14	
242	7.735546e+00	-6.50518e-06	-1.73146e-14	
243	7.935546e+00	-6.70724e-06	1.730697e-14	
244	8.000000e+00	-6.50940e-06	-1.72839e-14	
245	8.000000e+00	-6.50834e-06	-3.00607e-11	
246	8.000000e+00	-6.50405e-06	-3.00165e-11	
247	8.000001e+00	-6.51499e-06	-3.02255e-11	
248	8.000001e+00	-6.55722e-06	-3.06684e-11	
249	8.000001e+00	-6.57674e-06	-9.38248e-13	
250	8.000001e+00	-6.61630e-06	-9.51869e-13	
251	8.000002e+00	-6.69664e-06	-9.49232e-13	
252	8.000002e+00	-6.85782e-06	-9.44079e-13	
253	8.000003e+00	-7.18201e-06	-9.33808e-13	
254	8.000006e+00	-7.83716e-06	-9.13836e-13	
255	8.000011e+00	-9.16976e-06	-8.75595e-13	
256	8.000021e+00	-1.18923e-05	-8.05300e-13	
257	8.000042e+00	-1.73631e-05	-6.81011e-13	
258	8.000083e+00	-2.40679e-05	-1.81287e-13	
259	8.000165e+00	-6.73142e-06	-1.17967e-13	
260	8.000329e+00	-5.20842e-11	-5.74197e-13	
261	8.000656e+00	-6.62239e-11	5.678876e-13	
262	8.001312e+00	-5.07299e-11	-5.65037e-13	
263	8.002622e+00	-6.66796e-11	5.636667e-13	
264	8.005244e+00	-5.04157e-11	-5.62999e-13	
265	8.010487e+00	-6.67842e-11	5.626681e-13	
266	8.020972e+00	-5.03482e-11	-5.62504e-13	
267	8.041944e+00	-6.68104e-11	5.624216e-13	
268	8.083887e+00	-5.03312e-11	-5.62381e-13	
269	8.167773e+00	-6.68168e-11	5.623602e-13	
270	8.335545e+00	-5.03272e-11	-5.62350e-13	
271	8.535545e+00	-6.68099e-11	5.623414e-13	
272	8.735545e+00	-5.03394e-11	-5.62333e-13	
273	8.935545e+00	-6.68167e-11	5.623242e-13	
274	9.000001e+00	-5.03350e-11	-5.62298e-13	
275	9.000001e+00	-6.79915e-11	2.971185e-11	
276	9.000001e+00	-6.48327e-11	2.989489e-11	
277	9.000002e+00	-6.16712e-11	3.007195e-11	
278	9.000002e+00	-6.08647e-11	3.022530e-11	
279	9.000002e+00	-5.42767e-11	2.016219e-13	
280	9.000002e+00	-5.46439e-11	2.145535e-13	
281	9.000003e+00	-5.53573e-11	2.140581e-13	
282	9.000003e+00	-5.68067e-11	2.129912e-13	
283	9.000004e+00	-5.98162e-11	2.110931e-13	
284	9.000007e+00	-6.62919e-11	2.076447e-13	
285	9.000012e+00	-8.13640e-11	2.023295e-13	
286	9.000022e+00	-1.22576e-10	1.952531e-13	

Index   time            v1#branch       v2#branch       
--------------------------------------------------------------------------------
287	9.000043e+00	-2.78805e-10	1.866598e-13	
288	9.000084e+00	-1.39289e-09	1.737225e-13	
289	9.000166e+00	-2.57860e-08	1.515298e-13	
290	9.000330e+00	-1.87235e-06	1.031584e-13	
291	9.000657e+00	-2.05027e-05	-9.39200e-15	
292	9.001313e+00	-2.25139e-05	3.686724e-14	
293	9.002623e+00	-8.20785e-06	2.402226e-14	
294	9.005245e+00	-6.24934e-06	-1.85378e-14	
295	9.010488e+00	-6.79926e-06	1.773710e-14	
296	9.020973e+00	-6.46690e-06	-1.74967e-14	
297	9.041945e+00	-6.72743e-06	1.740233e-14	
298	9.083888e+00	-6.49551e-06	-1.73603e-14	
299	9.167774e+00	-6.71430e-06	1.734054e-14	
300	9.335546e+00	-6.50171e-06	-1.73309e-14	
301	9.535546e+00	-6.71058e-06	1.732298e-14	
302	9.735546e+00	-6.50518e-06	-1.73152e-14	
303	9.935546e+00	-6.70724e-06	1.730751e-14	
304	1.000000e+01	-6.50940e-06	-1.72844e-14	
